;$FILEVERSION=1.1
;$STARTTIME=46044.4929511921
;
;   Start time: 1/22/2026 11:49:50.983.0
;   Generated by PCAN-View v5.3.1.948
;
;   Message Number
;   |         Time Offset (ms)
;   |         |        Type
;   |         |        |        ID (hex)
;   |         |        |        |     Data Length
;   |         |        |        |     |   Data Bytes (hex) ...
;   |         |        |        |     |   |
;---+--   ----+----  --+--  ----+---  +  -+ -- -- -- -- -- -- --
     1)        16.2  Rx     18FF16E0  8  00 00 00 00 00 00 00 00 
     2)        16.8  Rx     18FF17E0  8  00 00 00 00 00 00 00 00 
     3)        17.4  Rx     18FF18E0  8  00 00 00 00 00 00 00 00 
     4)        18.0  Rx     18FF15E0  8  00 00 00 00 00 00 00 00 
     5)        18.6  Rx     18EFE0D1  8  00 00 00 00 00 00 00 00 
     6)        19.2  Rx     18FFFBE0  8  00 40 00 00 00 00 00 17 
     7)        19.7  Rx     18EFD1E0  8  03 03 50 04 00 00 00 10 
     8)        20.3  Rx     18FFF4E0  8  00 00 00 00 00 00 00 00 
     9)        20.9  Rx     18FFF6E0  8  94 00 A7 13 B6 02 56 02 
    10)        21.5  Rx     18FF1CD1  8  00 00 00 00 00 00 00 00 
    11)        22.1  Rx     18FF1DD1  8  00 00 00 00 00 00 00 00 
    12)        22.7  Rx     18FF1ED1  8  00 00 00 00 00 00 00 00 
    13)        23.2  Rx     18EFE0D1  8  00 00 00 00 00 00 00 00 
    14)        23.8  Rx     18FF1CD1  8  00 00 00 00 00 00 00 00 
    15)        24.4  Rx     18FF1DD1  8  00 00 00 00 00 00 00 00 
    16)        25.0  Rx     18FF1ED1  8  00 00 00 00 00 00 00 00 
    17)        26.3  Rx     18FF1AE0  8  00 00 00 00 00 00 00 00 
    18)        56.3  Rx     18FF1AE0  8  00 00 00 00 00 00 00 00 
    19)        66.3  Rx     18FF16E0  8  00 00 00 00 00 00 00 00 
    20)        66.9  Rx     18FF17E0  8  00 00 00 00 00 00 00 00 
    21)        67.4  Rx     18EFE0D1  8  00 00 00 00 00 00 00 00 
    22)        68.0  Rx     18FF18E0  8  00 00 00 00 00 00 00 00 
    23)        68.6  Rx     18FF15E0  8  00 00 00 00 00 00 00 00 
    24)        69.2  Rx     18FFFBE0  8  00 40 00 00 00 00 00 17 
    25)        69.8  Rx     18FF1CD1  8  00 00 00 00 00 00 00 00 
    26)        70.3  Rx     18FF1DD1  8  00 00 00 00 00 00 00 00 
    27)        70.9  Rx     18FF1ED1  8  00 00 00 00 00 00 00 00 
    28)        71.5  Rx     18EFE0D1  8  00 00 00 00 00 00 00 00 
    29)        72.1  Rx     18FF1CD1  8  00 00 00 00 00 00 00 00 
    30)        72.7  Rx     18FF1DD1  8  00 00 00 00 00 00 00 00 
    31)        73.3  Rx     18FF1ED1  8  00 00 00 00 00 00 00 00 
    32)        86.3  Rx     18FF1AE0  8  00 00 00 00 00 00 00 00 
    33)       116.3  Rx     18FF1AE0  8  00 00 00 00 00 00 00 00 
    34)       116.9  Rx     18FF16E0  8  00 00 00 00 00 00 00 00 
    35)       117.5  Rx     18FF17E0  8  00 00 00 00 00 00 00 00 
    36)       118.0  Rx     18EFE0D1  8  00 00 00 00 00 00 00 00 
    37)       118.6  Rx     18FF18E0  8  00 00 00 00 00 00 00 00 
    38)       119.2  Rx     18FF15E0  8  00 00 00 00 00 00 00 00 
    39)       119.8  Rx     18FFFBE0  8  00 40 00 00 00 00 00 17 
    40)       120.4  Rx     18FFFCE0  8  02 05 96 00 EF 06 02 00 
    41)       121.0  Rx     18FFF3E0  8  00 00 00 00 00 00 00 00 
    42)       121.5  Rx     18FFF5E0  8  00 00 00 00 00 00 00 00 
    43)       122.1  Rx     18FFE6E0  8  1E 00 04 07 01 06 1E 1E 
    44)       122.7  Rx     18FF1CD1  8  00 00 00 00 00 00 00 00 
    45)       123.3  Rx     18FF1DD1  8  00 00 00 00 00 00 00 00 
    46)       123.9  Rx     18FF1ED1  8  00 00 00 00 00 00 00 00 
    47)       124.5  Rx     18EFE0D1  8  00 00 00 00 00 00 00 00 
    48)       125.0  Rx     18FF1CD1  8  00 00 00 00 00 00 00 00 
    49)       125.6  Rx     18FF1DD1  8  00 00 00 00 00 00 00 00 
    50)       126.2  Rx     18FF1ED1  8  00 00 00 00 00 00 00 00 
    51)       146.3  Rx     18FF1AE0  8  00 00 00 00 00 00 00 00 
    52)       166.3  Rx     18FF16E0  8  00 00 00 00 00 00 00 00 
    53)       166.9  Rx     18FF17E0  8  00 00 00 00 00 00 00 00 
    54)       167.4  Rx     18FF18E0  8  00 00 00 00 00 00 00 00 
    55)       168.0  Rx     18EFE0D1  8  00 00 00 00 00 00 00 00 
    56)       168.6  Rx     18FF15E0  8  00 00 00 00 00 00 00 00 
    57)       169.2  Rx     18FFFBE0  8  00 40 00 00 00 00 00 17 
    58)       169.8  Rx     18FF1CD1  8  00 00 00 00 00 00 00 00 
    59)       170.4  Rx     18FF1DD1  8  00 00 00 00 00 00 00 00 
    60)       171.0  Rx     18FF1ED1  8  00 00 00 00 00 00 00 00 
    61)       171.6  Rx     18EFE0D1  8  00 00 00 00 00 00 00 00 
    62)       172.2  Rx     18FF1CD1  8  00 00 00 00 00 00 00 00 
    63)       172.7  Rx     18FF1DD1  8  00 00 00 00 00 00 00 00 
    64)       173.3  Rx     18FF1ED1  8  00 00 00 00 00 00 00 00 
    65)       176.2  Rx     18FF1AE0  8  00 00 00 00 00 00 00 00 
    66)       206.2  Rx     18FF1AE0  8  00 00 00 00 00 00 00 00 
    67)       216.3  Rx     18FF16E0  8  00 00 00 00 00 00 00 00 
    68)       216.9  Rx     18FF17E0  8  00 00 00 00 00 00 00 00 
    69)       217.4  Rx     18EFE0D1  8  00 00 00 00 00 00 00 00 
    70)       218.0  Rx     18FF18E0  8  00 00 00 00 00 00 00 00 
    71)       218.6  Rx     18FF15E0  8  00 00 00 00 00 00 00 00 
    72)       219.2  Rx     18FFFBE0  8  00 40 00 00 00 00 00 17 
    73)       219.8  Rx     18EFD1E0  8  03 03 50 04 00 00 00 10 
    74)       220.4  Rx     18FFF4E0  8  00 00 00 00 00 00 00 00 
    75)       220.9  Rx     18FFF6E0  8  94 00 93 13 B5 02 56 02 
    76)       221.5  Rx     18FF1CD1  8  00 00 00 00 00 00 00 00 
    77)       222.1  Rx     18FF1DD1  8  00 00 00 00 00 00 00 00 
    78)       222.7  Rx     18FF1ED1  8  00 00 00 00 00 00 00 00 
    79)       223.3  Rx     18EFE0D1  8  00 00 00 00 00 00 00 00 
    80)       223.9  Rx     18FF1CD1  8  00 00 00 00 00 00 00 00 
    81)       224.5  Rx     18FF1DD1  8  00 00 00 00 00 00 00 00 
    82)       225.1  Rx     18FF1ED1  8  00 00 00 00 00 00 00 00 
    83)       236.2  Rx     18FF1AE0  8  00 00 00 00 00 00 00 00 
    84)       266.3  Rx     18FF1AE0  8  00 00 00 00 00 00 00 00 
    85)       266.8  Rx     18FF16E0  8  00 00 00 00 00 00 00 00 
    86)       267.4  Rx     18FF17E0  8  00 00 00 00 00 00 00 00 
    87)       268.0  Rx     18FF18E0  8  00 00 00 00 00 00 00 00 
    88)       268.6  Rx     18EFE0D1  8  00 00 00 00 00 00 00 00 
    89)       269.2  Rx     18FF15E0  8  00 00 00 00 00 00 00 00 
    90)       269.8  Rx     18FFFBE0  8  00 40 00 00 00 00 00 17 
    91)       270.4  Rx     18FF1CD1  8  00 00 00 00 00 00 00 00 
    92)       271.0  Rx     18FF1DD1  8  00 00 00 00 00 00 00 00 
    93)       271.5  Rx     18FF1ED1  8  00 00 00 00 00 00 00 00 
    94)       272.1  Rx     18EFE0D1  8  00 00 00 00 00 00 00 00 
    95)       272.7  Rx     18FF1CD1  8  00 00 00 00 00 00 00 00 
    96)       273.3  Rx     18FF1DD1  8  00 00 00 00 00 00 00 00 
    97)       273.9  Rx     18FF1ED1  8  00 00 00 00 00 00 00 00 
    98)       296.3  Rx     18FF1AE0  8  00 00 00 00 00 00 00 00 
    99)       316.2  Rx     18FF16E0  8  00 00 00 00 00 00 00 00 
   100)       316.8  Rx     18FF17E0  8  00 00 00 00 00 00 00 00 
   101)       317.4  Rx     18FF18E0  8  00 00 00 00 00 00 00 00 
   102)       318.0  Rx     18EFE0D1  8  00 00 00 00 00 00 00 00 
   103)       318.6  Rx     18FF15E0  8  00 00 00 00 00 00 00 00 
   104)       319.2  Rx     18FFFBE0  8  00 40 00 00 00 00 00 17 
   105)       319.7  Rx     18FFFCE0  8  02 05 96 00 EF 06 02 00 
   106)       320.3  Rx     18FFF3E0  8  00 00 00 00 00 00 00 00 
   107)       320.9  Rx     18FFF5E0  8  00 00 00 00 00 00 00 00 
   108)       321.5  Rx     18FFE6E0  8  1E 00 04 07 01 06 1E 1E 
   109)       322.1  Rx     18FF1CD1  8  00 00 00 00 00 00 00 00 
   110)       322.7  Rx     18FF1DD1  8  00 00 00 00 00 00 00 00 
   111)       323.3  Rx     18FF1ED1  8  00 00 00 00 00 00 00 00 
   112)       323.9  Rx     18EFE0D1  8  00 00 00 00 00 00 00 00 
   113)       324.5  Rx     18FF1CD1  8  00 00 00 00 00 00 00 00 
   114)       325.1  Rx     18FF1DD1  8  00 00 00 00 00 00 00 00 
   115)       325.7  Rx     18FF1ED1  8  00 00 00 00 00 00 00 00 
   116)       326.3  Rx     18FF1AE0  8  00 00 00 00 00 00 00 00 
   117)       356.3  Rx     18FF1AE0  8  00 00 00 00 00 00 00 00 
   118)       366.2  Rx     18FF16E0  8  00 00 00 00 00 00 00 00 
   119)       366.8  Rx     18FF17E0  8  00 00 00 00 00 00 00 00 
   120)       367.4  Rx     18FF18E0  8  00 00 00 00 00 00 00 00 
   121)       368.0  Rx     18EFE0D1  8  00 00 00 00 00 00 00 00 
   122)       368.6  Rx     18FF15E0  8  00 00 00 00 00 00 00 00 
   123)       369.2  Rx     18FFFBE0  8  00 40 00 00 00 00 00 17 
   124)       369.8  Rx     18FF1CD1  8  00 00 00 00 00 00 00 00 
   125)       370.4  Rx     18FF1DD1  8  00 00 00 00 00 00 00 00 
   126)       371.0  Rx     18FF1ED1  8  00 00 00 00 00 00 00 00 
   127)       371.5  Rx     18EFE0D1  8  00 00 00 00 00 00 00 00 
   128)       372.1  Rx     18FF1CD1  8  00 00 00 00 00 00 00 00 
   129)       372.7  Rx     18FF1DD1  8  00 00 00 00 00 00 00 00 
   130)       373.3  Rx     18FF1ED1  8  00 00 00 00 00 00 00 00 
   131)       386.2  Rx     18FF1AE0  8  00 00 00 00 00 00 00 00 
   132)       416.2  Rx     18FF1AE0  8  00 00 00 00 00 00 00 00 
   133)       416.8  Rx     18FF16E0  8  00 00 00 00 00 00 00 00 
   134)       417.4  Rx     18EFE0D1  8  00 00 00 00 00 00 00 00 
   135)       418.0  Rx     18FF17E0  8  00 00 00 00 00 00 00 00 
   136)       418.6  Rx     18FF18E0  8  00 00 00 00 00 00 00 00 
   137)       419.2  Rx     18FF15E0  8  00 00 00 00 00 00 00 00 
   138)       419.8  Rx     18FFFBE0  8  00 40 00 00 00 00 00 17 
   139)       420.3  Rx     18EFD1E0  8  03 03 50 04 00 00 00 10 
   140)       420.9  Rx     18FFF4E0  8  00 00 00 00 00 00 00 00 
   141)       421.5  Rx     18FFF6E0  8  94 00 D4 13 B6 02 56 02 
   142)       422.0  Rx     18FF1CD1  8  00 00 00 00 00 00 00 00 
   143)       422.6  Rx     18FF1DD1  8  00 00 00 00 00 00 00 00 
   144)       423.2  Rx     18FF1ED1  8  00 00 00 00 00 00 00 00 
   145)       423.8  Rx     18EFE0D1  8  00 00 00 00 00 00 00 00 
   146)       424.4  Rx     18FF1CD1  8  00 00 00 00 00 00 00 00 
   147)       425.0  Rx     18FF1DD1  8  00 00 00 00 00 00 00 00 
   148)       425.6  Rx     18FF1ED1  8  00 00 00 00 00 00 00 00 
   149)       446.2  Rx     18FF1AE0  8  00 00 00 00 00 00 00 00 
   150)       466.2  Rx     18FF16E0  8  00 00 00 00 00 00 00 00 
   151)       466.8  Rx     18FF17E0  8  00 00 00 00 00 00 00 00 
   152)       467.4  Rx     18FF18E0  8  00 00 00 00 00 00 00 00 
   153)       468.0  Rx     18EFE0D1  8  00 00 00 00 00 00 00 00 
   154)       468.6  Rx     18FF15E0  8  00 00 00 00 00 00 00 00 
   155)       469.2  Rx     18FFFBE0  8  00 40 00 00 00 00 00 17 
   156)       469.7  Rx     18FF1CD1  8  00 00 00 00 00 00 00 00 
   157)       470.3  Rx     18FF1DD1  8  00 00 00 00 00 00 00 00 
   158)       470.9  Rx     18FF1ED1  8  00 00 00 00 00 00 00 00 
   159)       471.5  Rx     18EFE0D1  8  00 00 00 00 00 00 00 00 
   160)       472.1  Rx     18FF1CD1  8  00 00 00 00 00 00 00 00 
   161)       472.7  Rx     18FF1DD1  8  00 00 00 00 00 00 00 00 
   162)       473.3  Rx     18FF1ED1  8  00 00 00 00 00 00 00 00 
   163)       476.2  Rx     18FF1AE0  8  00 00 00 00 00 00 00 00 
   164)       506.3  Rx     18FF1AE0  8  00 00 00 00 00 00 00 00 
   165)       508.1  Rx     18EFE0D1  8  00 00 00 00 00 00 00 00 
   166)       508.7  Rx     18FF1CD1  8  00 00 00 00 00 00 00 00 
   167)       509.3  Rx     18FF1DD1  8  00 00 00 00 00 00 00 00 
   168)       509.9  Rx     18FF1ED1  8  00 00 00 00 00 00 00 00 
   169)       516.3  Rx     18FF16E0  8  00 00 00 00 00 00 00 00 
   170)       516.8  Rx     18FF17E0  8  00 00 00 00 00 00 00 00 
   171)       517.4  Rx     18FF18E0  8  00 00 00 00 00 00 00 00 
   172)       518.0  Rx     18EFE0D1  8  00 00 00 00 00 00 00 00 
   173)       518.6  Rx     18FF15E0  8  00 00 00 00 00 00 00 00 
   174)       519.2  Rx     18FFFBE0  8  00 40 00 00 00 00 00 17 
   175)       519.8  Rx     18FFFCE0  8  02 05 96 00 EF 06 02 00 
   176)       520.3  Rx     18FFF3E0  8  00 00 00 00 00 00 00 00 
   177)       520.9  Rx     18FFF5E0  8  00 00 00 00 00 00 00 00 
   178)       521.5  Rx     18FFE6E0  8  1E 00 04 07 01 06 1E 1E 
   179)       522.1  Rx     18FF1CD1  8  00 00 00 00 00 00 00 00 
   180)       522.7  Rx     18FF1DD1  8  00 00 00 00 00 00 00 00 
   181)       523.2  Rx     18FF1ED1  8  00 00 00 00 00 00 00 00 
   182)       523.8  Rx     18EFE0D1  8  00 00 00 00 00 00 00 00 
   183)       524.4  Rx     18FF1CD1  8  00 00 00 00 00 00 00 00 
   184)       525.0  Rx     18FF1DD1  8  00 00 00 00 00 00 00 00 
   185)       525.6  Rx     18FF1ED1  8  00 00 00 00 00 00 00 00 
   186)       536.3  Rx     18FF1AE0  8  00 00 00 00 00 00 00 00 
   187)       566.3  Rx     18FF1AE0  8  00 00 00 00 00 00 00 00 
   188)       566.8  Rx     18FF16E0  8  00 00 00 00 00 00 00 00 
   189)       567.4  Rx     18FF17E0  8  00 00 00 00 00 00 00 00 
   190)       568.0  Rx     18EFE0D1  8  00 00 00 00 00 00 00 00 
   191)       568.6  Rx     18FF18E0  8  00 00 00 00 00 00 00 00 
   192)       569.2  Rx     18FF15E0  8  00 00 00 00 00 00 00 00 
   193)       569.8  Rx     18FFFBE0  8  00 40 00 00 00 00 00 17 
   194)       570.4  Rx     18FF1CD1  8  00 00 00 00 00 00 00 00 
   195)       570.9  Rx     18FF1DD1  8  00 00 00 00 00 00 00 00 
   196)       571.5  Rx     18FF1ED1  8  00 00 00 00 00 00 00 00 
   197)       572.1  Rx     18EFE0D1  8  00 00 00 00 00 00 00 00 
   198)       572.7  Rx     18FF1CD1  8  00 00 00 00 00 00 00 00 
   199)       573.3  Rx     18FF1DD1  8  00 00 00 00 00 00 00 00 
   200)       573.9  Rx     18FF1ED1  8  00 00 00 00 00 00 00 00 
   201)       596.3  Rx     18FF1AE0  8  00 00 00 00 00 00 00 00 
   202)       616.3  Rx     18FF16E0  8  00 00 00 00 00 00 00 00 
   203)       616.9  Rx     18FF17E0  8  00 00 00 00 00 00 00 00 
   204)       617.4  Rx     18EFE0D1  8  00 00 00 00 00 00 00 00 
   205)       618.0  Rx     18FF18E0  8  00 00 00 00 00 00 00 00 
   206)       618.6  Rx     18FF15E0  8  00 00 00 00 00 00 00 00 
   207)       619.2  Rx     18FFFBE0  8  00 40 00 00 00 00 00 17 
   208)       619.8  Rx     18EFD1E0  8  03 03 50 04 00 00 00 10 
   209)       620.4  Rx     18FFF4E0  8  00 00 00 00 00 00 00 00 
   210)       620.9  Rx     18FFF6E0  8  94 00 9D 13 B5 02 56 02 
   211)       621.5  Rx     18FF1CD1  8  00 00 00 00 00 00 00 00 
   212)       622.1  Rx     18FF1DD1  8  00 00 00 00 00 00 00 00 
   213)       622.7  Rx     18FF1ED1  8  00 00 00 00 00 00 00 00 
   214)       623.3  Rx     18EFE0D1  8  00 00 00 00 00 00 00 00 
   215)       623.9  Rx     18FF1CD1  8  00 00 00 00 00 00 00 00 
   216)       624.5  Rx     18FF1DD1  8  00 00 00 00 00 00 00 00 
   217)       625.1  Rx     18FF1ED1  8  00 00 00 00 00 00 00 00 
   218)       626.3  Rx     18FF1AE0  8  00 00 00 00 00 00 00 00 
   219)       656.3  Rx     18FF1AE0  8  00 00 00 00 00 00 00 00 
   220)       657.1  Rx     18EFE0D1  8  00 00 00 00 00 00 00 00 
   221)       657.7  Rx     18FF1CD1  8  00 00 00 00 00 00 00 00 
   222)       658.3  Rx     18FF1DD1  8  00 00 00 00 00 00 00 00 
   223)       658.9  Rx     18FF1ED1  8  00 00 00 00 00 00 00 00 
   224)       666.2  Rx     18FF16E0  8  00 00 00 00 00 00 00 00 
   225)       666.8  Rx     18FF17E0  8  00 00 00 00 00 00 00 00 
   226)       667.4  Rx     18FF18E0  8  00 00 00 00 00 00 00 00 
   227)       668.0  Rx     18EFE0D1  8  00 00 00 00 00 00 00 00 
   228)       668.6  Rx     18FF15E0  8  00 00 00 00 00 00 00 00 
   229)       669.2  Rx     18FFFBE0  8  00 40 00 00 00 00 00 17 
   230)       669.8  Rx     18FF1CD1  8  00 00 00 00 00 00 00 00 
   231)       670.4  Rx     18FF1DD1  8  00 00 00 00 00 00 00 00 
   232)       671.0  Rx     18FF1ED1  8  00 00 00 00 00 00 00 00 
   233)       671.6  Rx     18EFE0D1  8  00 00 00 00 00 00 00 00 
   234)       672.1  Rx     18FF1CD1  8  00 00 00 00 00 00 00 00 
   235)       672.8  Rx     18FF1DD1  8  00 00 00 00 00 00 00 00 
   236)       673.3  Rx     18FF1ED1  8  00 00 00 00 00 00 00 00 
   237)       686.3  Rx     18FF1AE0  8  00 00 00 00 00 00 00 00 
   238)       716.2  Rx     18FF1AE0  8  00 00 00 00 00 00 00 00 
   239)       716.8  Rx     18FF16E0  8  00 00 00 00 00 00 00 00 
   240)       717.4  Rx     18FF17E0  8  00 00 00 00 00 00 00 00 
   241)       718.0  Rx     18FF18E0  8  00 00 00 00 00 00 00 00 
   242)       718.6  Rx     18EFE0D1  8  00 00 00 00 00 00 00 00 
   243)       719.2  Rx     18FF15E0  8  00 00 00 00 00 00 00 00 
   244)       719.8  Rx     18FFFBE0  8  00 40 00 00 00 00 00 17 
   245)       720.3  Rx     18FFFCE0  8  02 05 96 00 EF 06 02 00 
   246)       720.9  Rx     18FFF3E0  8  00 00 00 00 00 00 00 00 
   247)       721.5  Rx     18FFF5E0  8  00 00 00 00 00 00 00 00 
   248)       722.1  Rx     18FFE6E0  8  1E 00 04 07 01 06 1E 1E 
   249)       722.7  Rx     18FF1CD1  8  00 00 00 00 00 00 00 00 
   250)       723.3  Rx     18FF1DD1  8  00 00 00 00 00 00 00 00 
   251)       723.9  Rx     18FF1ED1  8  00 00 00 00 00 00 00 00 
   252)       724.5  Rx     18EFE0D1  8  00 00 00 00 00 00 00 00 
   253)       725.0  Rx     18FF1CD1  8  00 00 00 00 00 00 00 00 
   254)       725.6  Rx     18FF1DD1  8  00 00 00 00 00 00 00 00 
   255)       726.2  Rx     18FF1ED1  8  00 00 00 00 00 00 00 00 
   256)       746.2  Rx     18FF1AE0  8  00 00 00 00 00 00 00 00 
   257)       766.2  Rx     18FF16E0  8  00 00 00 00 00 00 00 00 
   258)       766.8  Rx     18FF17E0  8  00 00 00 00 00 00 00 00 
   259)       767.4  Rx     18EFE0D1  8  00 00 00 00 00 00 00 00 
   260)       768.0  Rx     18FF18E0  8  00 00 00 00 00 00 00 00 
   261)       768.6  Rx     18FF15E0  8  00 00 00 00 00 00 00 00 
   262)       769.2  Rx     18FFFBE0  8  00 40 00 00 00 00 00 17 
   263)       769.8  Rx     18FF1CD1  8  00 00 00 00 00 00 00 00 
   264)       770.4  Rx     18FF1DD1  8  00 00 00 00 00 00 00 00 
   265)       770.9  Rx     18FF1ED1  8  00 00 00 00 00 00 00 00 
   266)       771.5  Rx     18EFE0D1  8  00 00 00 00 00 00 00 00 
   267)       772.1  Rx     18FF1CD1  8  00 00 00 00 00 00 00 00 
   268)       772.7  Rx     18FF1DD1  8  00 00 00 00 00 00 00 00 
   269)       773.3  Rx     18FF1ED1  8  00 00 00 00 00 00 00 00 
   270)       776.3  Rx     18FF1AE0  8  00 00 00 00 00 00 00 00 
   271)       806.3  Rx     18FF1AE0  8  00 00 00 00 00 00 00 00 
   272)       807.6  Rx     18EFE0D1  8  00 00 00 00 00 00 00 00 
   273)       808.1  Rx     18FF1CD1  8  00 00 00 00 00 00 00 00 
   274)       808.7  Rx     18FF1DD1  8  00 00 00 00 00 00 00 00 
   275)       809.3  Rx     18FF1ED1  8  00 00 00 00 00 00 00 00 
   276)       816.3  Rx     18FF16E0  8  00 00 00 00 00 00 00 00 
   277)       816.9  Rx     18FF17E0  8  00 00 00 00 00 00 00 00 
   278)       817.4  Rx     18FF18E0  8  00 00 00 00 00 00 00 00 
   279)       818.0  Rx     18FF15E0  8  00 00 00 00 00 00 00 00 
   280)       818.6  Rx     18EFE0D1  8  00 00 00 00 00 00 00 00 
   281)       819.2  Rx     18FFFBE0  8  00 40 00 00 00 00 00 17 
   282)       819.8  Rx     18EFD1E0  8  03 03 50 04 00 00 00 10 
   283)       820.3  Rx     18FFF4E0  8  00 00 00 00 00 00 00 00 
   284)       820.9  Rx     18FFF6E0  8  94 00 D3 13 B6 02 56 02 
   285)       821.5  Rx     18FF1CD1  8  00 00 00 00 00 00 00 00 
   286)       822.1  Rx     18FF1DD1  8  00 00 00 00 00 00 00 00 
   287)       822.7  Rx     18FF1ED1  8  00 00 00 00 00 00 00 00 
   288)       823.3  Rx     18EFE0D1  8  00 00 00 00 00 00 00 00 
   289)       823.8  Rx     18FF1CD1  8  00 00 00 00 00 00 00 00 
   290)       824.4  Rx     18FF1DD1  8  00 00 00 00 00 00 00 00 
   291)       825.0  Rx     18FF1ED1  8  00 00 00 00 00 00 00 00 
   292)       836.3  Rx     18FF1AE0  8  00 00 00 00 00 00 00 00 
   293)       866.3  Rx     18FF1AE0  8  00 00 00 00 00 00 00 00 
   294)       866.9  Rx     18FF16E0  8  00 00 00 00 00 00 00 00 
   295)       867.4  Rx     18EFE0D1  8  00 00 00 00 00 00 00 00 
   296)       868.0  Rx     18FF17E0  8  00 00 00 00 00 00 00 00 
   297)       868.6  Rx     18FF18E0  8  00 00 00 00 00 00 00 00 
   298)       869.2  Rx     18FF15E0  8  00 00 00 00 00 00 00 00 
   299)       869.8  Rx     18FFFBE0  8  00 40 00 00 00 00 00 17 
   300)       870.4  Rx     18FF1CD1  8  00 00 00 00 00 00 00 00 
   301)       871.0  Rx     18FF1DD1  8  00 00 00 00 00 00 00 00 
   302)       871.5  Rx     18FF1ED1  8  00 00 00 00 00 00 00 00 
   303)       872.1  Rx     18EFE0D1  8  00 00 00 00 00 00 00 00 
   304)       872.7  Rx     18FF1CD1  8  00 00 00 00 00 00 00 00 
   305)       873.3  Rx     18FF1DD1  8  00 00 00 00 00 00 00 00 
   306)       873.9  Rx     18FF1ED1  8  00 00 00 00 00 00 00 00 
   307)       896.3  Rx     18FF1AE0  8  00 00 00 00 00 00 00 00 
   308)       916.3  Rx     18FF16E0  8  00 00 00 00 00 00 00 00 
   309)       916.9  Rx     18FF17E0  8  00 00 00 00 00 00 00 00 
   310)       917.4  Rx     18EFE0D1  8  00 00 00 00 00 00 00 00 
   311)       918.0  Rx     18FF18E0  8  00 00 00 00 00 00 00 00 
   312)       918.6  Rx     18FF15E0  8  00 00 00 00 00 00 00 00 
   313)       919.2  Rx     18FFFBE0  8  00 40 00 00 00 00 00 17 
   314)       919.8  Rx     18FFFCE0  8  02 05 96 00 EF 06 02 00 
   315)       920.4  Rx     18FFF3E0  8  00 00 00 00 00 00 00 00 
   316)       921.0  Rx     18FFF5E0  8  00 00 00 00 00 00 00 00 
   317)       921.5  Rx     18FFE6E0  8  1E 00 04 07 01 06 1E 1E 
   318)       922.1  Rx     18FF1CD1  8  00 00 00 00 00 00 00 00 
   319)       922.7  Rx     18FF1DD1  8  00 00 00 00 00 00 00 00 
   320)       923.3  Rx     18FF1ED1  8  00 00 00 00 00 00 00 00 
   321)       923.9  Rx     18EFE0D1  8  00 00 00 00 00 00 00 00 
   322)       924.5  Rx     18FF1CD1  8  00 00 00 00 00 00 00 00 
   323)       925.1  Rx     18FF1DD1  8  00 00 00 00 00 00 00 00 
   324)       925.6  Rx     18FF1ED1  8  00 00 00 00 00 00 00 00 
   325)       926.2  Rx     18FF1AE0  8  00 00 00 00 00 00 00 00 
   326)       956.2  Rx     18FF1AE0  8  00 00 00 00 00 00 00 00 
   327)       957.9  Rx     18EFE0D1  8  00 00 00 00 00 00 00 00 
   328)       958.5  Rx     18FF1CD1  8  00 00 00 00 00 00 00 00 
   329)       959.1  Rx     18FF1DD1  8  00 00 00 00 00 00 00 00 
   330)       959.7  Rx     18FF1ED1  8  00 00 00 00 00 00 00 00 
   331)       966.3  Rx     18FF16E0  8  00 00 00 00 00 00 00 00 
   332)       966.9  Rx     18FF17E0  8  00 00 00 00 00 00 00 00 
   333)       967.4  Rx     18FF18E0  8  00 00 00 00 00 00 00 00 
   334)       968.0  Rx     18FF15E0  8  00 00 00 00 00 00 00 00 
   335)       968.6  Rx     18EFE0D1  8  00 00 00 00 00 00 00 00 
   336)       969.2  Rx     18FFFBE0  8  00 40 00 00 00 00 00 17 
   337)       969.8  Rx     18FF1CD1  8  00 00 00 00 00 00 00 00 
   338)       970.4  Rx     18FF1DD1  8  00 00 00 00 00 00 00 00 
   339)       971.0  Rx     18FF1ED1  8  00 00 00 00 00 00 00 00 
   340)       971.6  Rx     18EFE0D1  8  00 00 00 00 00 00 00 00 
   341)       972.2  Rx     18FF1CD1  8  00 00 00 00 00 00 00 00 
   342)       972.8  Rx     18FF1DD1  8  00 00 00 00 00 00 00 00 
   343)       973.3  Rx     18FF1ED1  8  00 00 00 00 00 00 00 00 
   344)       986.2  Rx     18FF1AE0  8  00 00 00 00 00 00 00 00 
   345)      1016.3  Rx     18FF1AE0  8  00 00 00 00 00 00 00 00 
   346)      1016.8  Rx     18FF16E0  8  00 00 00 00 00 00 00 00 
   347)      1017.4  Rx     18FF17E0  8  00 00 00 00 00 00 00 00 
   348)      1018.0  Rx     18EFE0D1  8  00 00 00 00 00 00 00 00 
   349)      1018.6  Rx     18FF18E0  8  00 00 00 00 00 00 00 00 
   350)      1019.2  Rx     18FF15E0  8  00 00 00 00 00 00 00 00 
   351)      1019.8  Rx     18FFFBE0  8  00 40 00 00 00 00 00 17 
   352)      1020.3  Rx     18EFD1E0  8  03 03 50 04 00 00 00 10 
   353)      1020.9  Rx     18FFF4E0  8  00 00 00 00 00 00 00 00 
   354)      1021.5  Rx     18FFF6E0  8  94 00 CC 13 B5 02 56 02 
   355)      1022.1  Rx     18FF1CD1  8  00 00 00 00 00 00 00 00 
   356)      1022.7  Rx     18FF1DD1  8  00 00 00 00 00 00 00 00 
   357)      1023.3  Rx     18FF1ED1  8  00 00 00 00 00 00 00 00 
   358)      1023.9  Rx     18EFE0D1  8  00 00 00 00 00 00 00 00 
   359)      1024.5  Rx     18FF1CD1  8  00 00 00 00 00 00 00 00 
   360)      1025.1  Rx     18FF1DD1  8  00 00 00 00 00 00 00 00 
   361)      1025.6  Rx     18FF1ED1  8  00 00 00 00 00 00 00 00 
   362)      1046.3  Rx     18FF1AE0  8  00 00 00 00 00 00 00 00 
   363)      1066.2  Rx     18FF16E0  8  00 00 00 00 00 00 00 00 
   364)      1066.8  Rx     18FF17E0  8  00 00 00 00 00 00 00 00 
   365)      1067.4  Rx     18EFE0D1  8  00 00 00 00 00 00 00 00 
   366)      1068.0  Rx     18FF18E0  8  00 00 00 00 00 00 00 00 
   367)      1068.6  Rx     18FF15E0  8  00 00 00 00 00 00 00 00 
   368)      1069.2  Rx     18FFFBE0  8  00 40 00 00 00 00 00 17 
   369)      1069.8  Rx     18FF1CD1  8  00 00 00 00 00 00 00 00 
   370)      1070.4  Rx     18FF1DD1  8  00 00 00 00 00 00 00 00 
   371)      1071.0  Rx     18FF1ED1  8  00 00 00 00 00 00 00 00 
